T10E4 000:021.368   SEGGER J-Link V7.90 Log File
T10E4 000:021.944   DLL Compiled: Aug  2 2023 15:18:43
T10E4 000:021.958   Logging started @ 2023-12-02 15:10
T10E4 000:021.969 - 21.977ms
T10E4 000:021.992 JLINK_SetWarnOutHandler(...)
T10E4 000:022.006 - 0.020ms
T10E4 000:022.020 JLINK_OpenEx(...)
T10E4 000:027.461   Firmware: J-Link V9 compiled May  7 2021 16:26:12
T10E4 000:027.884   Firmware: J-Link V9 compiled May  7 2021 16:26:12
T10E4 000:028.144   Decompressing FW timestamp took 196 us
T10E4 000:034.441   Hardware: V9.40
T10E4 000:034.501   S/N: 99451649
T10E4 000:034.516   OEM: SEGGER
T10E4 000:034.529   Feature(s): RDI, GDB, FlashDL, FlashBP, JFlash
T10E4 000:035.477   Bootloader: (Could not read)
T10E4 000:037.284   TELNET listener socket opened on port 19021
T10E4 000:038.632   WEBSRV WEBSRV_Init(): Starting webserver thread(s)
T10E4 000:040.941   WEBSRV Webserver running on local port 19080
T10E4 000:041.265   Looking for J-Link GUI Server exe at: C:\Keil_v5\ARM\Segger\JLinkGUIServer.exe
T10E4 000:041.483   Looking for J-Link GUI Server exe at: C:\Program Files\SEGGER\JLink\JLinkGUIServer.exe
T10E4 000:041.562   Forking J-Link GUI Server: C:\Program Files\SEGGER\JLink\JLinkGUIServer.exe
T10E4 000:071.020   J-Link GUI Server info: "J-Link GUI server V7.90 "
T10E4 000:071.929 - 49.959ms returns "O.K."
T10E4 000:072.013 JLINK_GetEmuCaps()
T10E4 000:072.028 - 0.019ms returns 0xB9FF7BBF
T10E4 000:072.043 JLINK_TIF_GetAvailable(...)
T10E4 000:072.305 - 0.279ms
T10E4 000:072.332 JLINK_SetErrorOutHandler(...)
T10E4 000:072.348 - 0.021ms
T10E4 000:072.387 JLINK_ExecCommand("ProjectFile = "C:\Users\chaohong.gu\Desktop\V_DemoPrj\DemoPrj\Project\MDK\JLinkSettings.ini"", ...). 
T10E4 000:090.419   Flash bank @ 0x08000000: SFL: Parsing sectorization info from ELF file
T10E4 000:090.476     FlashDevice.SectorInfo[0]: .SectorSize = 0x00001000, .SectorStartAddr = 0x08000000
T10E4 000:090.496   FlashBank @0x08000000: Sectorization info from SFL ELF file ignored because sectorization override from DLL / XML file is active.
T10E4 000:091.184   Device "AT32F435ZGT7" selected.
T10E4 000:092.073 - 19.709ms returns 0x00
T10E4 000:092.137 JLINK_ExecCommand("Device = -AT32F435ZGT7", ...). 
T10E4 000:092.404   Flash bank @ 0x08000000: SFL: Parsing sectorization info from ELF file
T10E4 000:092.440     FlashDevice.SectorInfo[0]: .SectorSize = 0x00001000, .SectorStartAddr = 0x08000000
T10E4 000:092.465   FlashBank @0x08000000: Sectorization info from SFL ELF file ignored because sectorization override from DLL / XML file is active.
T10E4 000:092.791   Device "AT32F435ZGT7" selected.
T10E4 000:093.591 - 1.453ms returns 0x00
T10E4 000:093.628 JLINK_ExecCommand("DisableConnectionTimeout", ...). 
T10E4 000:093.649 - 0.010ms returns 0x01
T10E4 000:093.670 JLINK_GetHardwareVersion()
T10E4 000:093.689 - 0.027ms returns 94000
T10E4 000:093.708 JLINK_GetDLLVersion()
T10E4 000:093.731 - 0.032ms returns 79000
T10E4 000:093.749 JLINK_GetOEMString(...)
T10E4 000:093.770 JLINK_GetFirmwareString(...)
T10E4 000:093.787 - 0.024ms
T10E4 000:093.830 JLINK_GetDLLVersion()
T10E4 000:093.847 - 0.025ms returns 79000
T10E4 000:093.865 JLINK_GetCompileDateTime()
T10E4 000:093.880 - 0.023ms
T10E4 000:093.905 JLINK_GetFirmwareString(...)
T10E4 000:093.923 - 0.025ms
T10E4 000:093.947 JLINK_GetHardwareVersion()
T10E4 000:093.964 - 0.025ms returns 94000
T10E4 000:093.989 JLINK_GetSN()
T10E4 000:094.007 - 0.025ms returns 99451649
T10E4 000:094.029 JLINK_GetOEMString(...)
T10E4 000:094.058 JLINK_TIF_Select(JLINKARM_TIF_SWD)
T10E4 000:094.851 - 0.811ms returns 0x00
T10E4 000:094.879 JLINK_HasError()
T10E4 000:094.897 JLINK_SetSpeed(5000)
T10E4 000:095.017 - 0.125ms
T10E4 000:095.031 JLINK_GetId()
T10E4 000:095.914   Found SW-DP with ID 0x2BA01477
T10E4 000:098.382   DPIDR: 0x2BA01477
T10E4 000:098.463   CoreSight SoC-400 or earlier
T10E4 000:098.499   Scanning AP map to find all available APs
T10E4 000:099.178   AP[1]: Stopped AP scan as end of AP map has been reached
T10E4 000:099.252   AP[0]: AHB-AP (IDR: 0x24770011)
T10E4 000:099.402   Iterating through AP map to find AHB-AP to use
T10E4 000:100.456   AP[0]: Core found
T10E4 000:100.586   AP[0]: AHB-AP ROM base: 0xE00FF000
T10E4 000:101.287   CPUID register: 0x410FC241. Implementer code: 0x41 (ARM)
T10E4 000:101.422   Found Cortex-M4 r0p1, Little endian.
T10E4 000:102.172   -- Max. mem block: 0x00010E60
T10E4 000:102.781   CPU_ReadMem(4 bytes @ 0xE000EDF0)
T10E4 000:103.193   CPU_WriteMem(4 bytes @ 0xE000EDF0)
T10E4 000:103.530   CPU_ReadMem(4 bytes @ 0xE0002000)
T10E4 000:103.913   FPUnit: 6 code (BP) slots and 2 literal slots
T10E4 000:103.960   CPU_ReadMem(4 bytes @ 0xE000EDFC)
T10E4 000:104.259   CPU_WriteMem(4 bytes @ 0xE000EDFC)
T10E4 000:104.606   CPU_ReadMem(4 bytes @ 0xE0001000)
T10E4 000:104.937   CPU_WriteMem(4 bytes @ 0xE0001000)
T10E4 000:105.257   CPU_ReadMem(4 bytes @ 0xE000ED88)
T10E4 000:105.609   CPU_WriteMem(4 bytes @ 0xE000ED88)
T10E4 000:106.137   CPU_ReadMem(4 bytes @ 0xE000ED88)
T10E4 000:106.612   CPU_WriteMem(4 bytes @ 0xE000ED88)
T10E4 000:107.119   CoreSight components:
T10E4 000:107.146   ROMTbl[0] @ E00FF000
T10E4 000:107.161   CPU_ReadMem(64 bytes @ 0xE00FF000)
T10E4 000:107.979   CPU_ReadMem(32 bytes @ 0xE000EFE0)
T10E4 000:108.669   [0][0]: E000E000 CID B105E00D PID 000BB00C SCS-M7
T10E4 000:108.719   CPU_ReadMem(32 bytes @ 0xE0001FE0)
T10E4 000:109.233   [0][1]: E0001000 CID B105E00D PID 003BB002 DWT
T10E4 000:109.279   CPU_ReadMem(32 bytes @ 0xE0002FE0)
T10E4 000:109.733   [0][2]: E0002000 CID B105E00D PID 002BB003 FPB
T10E4 000:109.787   CPU_ReadMem(32 bytes @ 0xE0000FE0)
T10E4 000:110.266   [0][3]: E0000000 CID B105E00D PID 003BB001 ITM
T10E4 000:110.305   CPU_ReadMem(32 bytes @ 0xE0040FE0)
T10E4 000:110.743   [0][4]: E0040000 CID B105900D PID 000BB9A1 TPIU
T10E4 000:110.792   CPU_ReadMem(32 bytes @ 0xE0041FE0)
T10E4 000:111.254   [0][5]: E0041000 CID 00000000 PID 00000000 ???
T10E4 000:111.584 - 16.586ms returns 0x2BA01477
T10E4 000:111.643 JLINK_GetDLLVersion()
T10E4 000:111.657 - 0.021ms returns 79000
T10E4 000:111.675 JLINK_CORE_GetFound()
T10E4 000:111.690 - 0.021ms returns 0xE0000FF
T10E4 000:111.706 JLINK_GetDebugInfo(0x100 = JLINKARM_ROM_TABLE_ADDR_INDEX)
T10E4 000:111.720   Value=0xE00FF000
T10E4 000:111.741 - 0.041ms returns 0
T10E4 000:111.894 JLINK_GetDebugInfo(0x100 = JLINKARM_ROM_TABLE_ADDR_INDEX)
T10E4 000:111.925   Value=0xE00FF000
T10E4 000:111.945 - 0.057ms returns 0
T10E4 000:111.959 JLINK_GetDebugInfo(0x101 = JLINKARM_DEBUG_INFO_ETM_ADDR_INDEX)
T10E4 000:111.973   Value=0x00000000
T10E4 000:111.993 - 0.041ms returns 0
T10E4 000:112.020 JLINK_ReadMemEx(0xE0041FF0, 0x10 Bytes, Flags = 0x02000004)
T10E4 000:112.071   CPU_ReadMem(16 bytes @ 0xE0041FF0)
T10E4 000:112.463   Data:  00 00 00 00 00 00 00 00 00 00 00 00 00 00 00 00
T10E4 000:112.528 - 0.518ms returns 16 (0x10)
T10E4 000:112.553 JLINK_GetDebugInfo(0x102 = JLINKARM_DEBUG_INFO_MTB_ADDR_INDEX)
T10E4 000:112.574   Value=0x00000000
T10E4 000:112.599 - 0.054ms returns 0
T10E4 000:112.618 JLINK_GetDebugInfo(0x103 = JLINKARM_DEBUG_INFO_TPIU_ADDR_INDEX)
T10E4 000:112.635   Value=0xE0040000
T10E4 000:112.660 - 0.049ms returns 0
T10E4 000:112.678 JLINK_GetDebugInfo(0x104 = JLINKARM_DEBUG_INFO_ITM_ADDR_INDEX)
T10E4 000:112.695   Value=0xE0000000
T10E4 000:112.723 - 0.053ms returns 0
T10E4 000:112.742 JLINK_GetDebugInfo(0x105 = JLINKARM_DEBUG_INFO_DWT_ADDR_INDEX)
T10E4 000:112.760   Value=0xE0001000
T10E4 000:112.785 - 0.051ms returns 0
T10E4 000:112.803 JLINK_GetDebugInfo(0x106 = JLINKARM_DEBUG_INFO_FPB_ADDR_INDEX)
T10E4 000:112.822   Value=0xE0002000
T10E4 000:112.850 - 0.055ms returns 0
T10E4 000:112.870 JLINK_GetDebugInfo(0x107 = JLINKARM_DEBUG_INFO_NVIC_ADDR_INDEX)
T10E4 000:112.888   Value=0xE000E000
T10E4 000:112.915 - 0.054ms returns 0
T10E4 000:112.935 JLINK_GetDebugInfo(0x10C = JLINKARM_DEBUG_INFO_DBG_ADDR_INDEX)
T10E4 000:112.955   Value=0xE000EDF0
T10E4 000:113.020 - 0.091ms returns 0
T10E4 000:113.037 JLINK_GetDebugInfo(0x01 = Unknown)
T10E4 000:113.054   Value=0x00000001
T10E4 000:113.068 - 0.039ms returns 0
T10E4 000:113.085 JLINK_ReadMemU32(0xE000ED00, 0x1 Items)
T10E4 000:113.107   CPU_ReadMem(4 bytes @ 0xE000ED00)
T10E4 000:113.392   Data:  41 C2 0F 41
T10E4 000:113.414   Debug reg: CPUID
T10E4 000:113.428 - 0.347ms returns 1 (0x1)
T10E4 000:113.439 JLINK_GetDebugInfo(0x10F = JLINKARM_DEBUG_INFO_HAS_CORTEX_M_SECURITY_EXT_INDEX)
T10E4 000:113.449   Value=0x00000000
T10E4 000:113.463 - 0.029ms returns 0
T10E4 000:113.474 JLINK_HasError()
T10E4 000:113.486 JLINK_SetResetType(JLINKARM_CM3_RESET_TYPE_NORMAL)
T10E4 000:113.496 - 0.014ms returns JLINKARM_CM3_RESET_TYPE_NORMAL
T10E4 000:113.507 JLINK_Reset()
T10E4 000:113.525   CPU is running
T10E4 000:113.541   CPU_WriteMem(4 bytes @ 0xE000EDF0)
T10E4 000:113.862   CPU is running
T10E4 000:113.898   CPU_WriteMem(4 bytes @ 0xE000EDFC)
T10E4 000:114.251   Reset: Halt core after reset via DEMCR.VC_CORERESET.
T10E4 000:114.731   Reset: Reset device via AIRCR.SYSRESETREQ.
T10E4 000:114.784   CPU is running
T10E4 000:114.814   CPU_WriteMem(4 bytes @ 0xE000ED0C)
T10E4 000:169.474   CPU_ReadMem(4 bytes @ 0xE000EDF0)
T10E4 000:169.869   CPU_ReadMem(4 bytes @ 0xE000EDF0)
T10E4 000:172.424   CPU_WriteMem(4 bytes @ 0xE000EDFC)
T10E4 000:178.658   CPU_ReadMem(4 bytes @ 0xE000EDF0)
T10E4 000:180.826   CPU_WriteMem(4 bytes @ 0xE0002000)
T10E4 000:181.199   CPU_ReadMem(4 bytes @ 0xE000EDFC)
T10E4 000:181.475   CPU_ReadMem(4 bytes @ 0xE0001000)
T10E4 000:181.707 - 68.206ms
T10E4 000:181.811 JLINK_HasError()
T10E4 000:181.824 JLINK_ReadReg(R15 (PC))
T10E4 000:181.842 - 0.021ms returns 0x08000220
T10E4 000:181.851 JLINK_ReadReg(XPSR)
T10E4 000:181.860 - 0.012ms returns 0x01000000
T10E4 000:181.869 JLINK_Halt()
T10E4 000:181.878 - 0.012ms returns 0x00
T10E4 000:181.888 JLINK_ReadMemU32(0xE000EDF0, 0x1 Items)
T10E4 000:181.906   CPU_ReadMem(4 bytes @ 0xE000EDF0)
T10E4 000:182.350   Data:  03 00 03 00
T10E4 000:182.368   Debug reg: DHCSR
T10E4 000:182.380 - 0.496ms returns 1 (0x1)
T10E4 000:182.393 JLINK_WriteU32_64(0xE000EDF0, 0xA05F0003)
T10E4 000:182.402   Debug reg: DHCSR
T10E4 000:182.764   CPU_WriteMem(4 bytes @ 0xE000EDF0)
T10E4 000:183.137 - 0.751ms returns 0 (0x00000000)
T10E4 000:183.151 JLINK_WriteU32_64(0xE000EDFC, 0x01000000)
T10E4 000:183.167   Debug reg: DEMCR
T10E4 000:183.182   CPU_WriteMem(4 bytes @ 0xE000EDFC)
T10E4 000:183.573 - 0.429ms returns 0 (0x00000000)
T10E4 000:183.653 JLINK_GetHWStatus(...)
T10E4 000:183.988 - 0.387ms returns 0
T10E4 000:184.092 JLINK_GetNumBPUnits(Type = 0xFFFFFF00)
T10E4 000:184.105 - 0.017ms returns 0x06
T10E4 000:184.115 JLINK_GetNumBPUnits(Type = 0xF0)
T10E4 000:184.124 - 0.013ms returns 0x2000
T10E4 000:184.134 JLINK_GetNumWPUnits()
T10E4 000:184.142 - 0.012ms returns 4
T10E4 000:184.160 JLINK_GetSpeed()
T10E4 000:184.171 - 0.014ms returns 4000
T10E4 000:184.199 JLINK_ReadMemU32(0xE000E004, 0x1 Items)
T10E4 000:184.224   CPU_ReadMem(4 bytes @ 0xE000E004)
T10E4 000:184.520   Data:  03 00 00 00
T10E4 000:184.537 - 0.342ms returns 1 (0x1)
T10E4 000:184.548 JLINK_ReadMemU32(0xE000E004, 0x1 Items)
T10E4 000:184.559   CPU_ReadMem(4 bytes @ 0xE000E004)
T10E4 000:184.858   Data:  03 00 00 00
T10E4 000:184.893 - 0.352ms returns 1 (0x1)
T10E4 000:184.907 JLINK_WriteMemEx(0xE0001000, 0x0000001C Bytes, Flags = 0x02000004)
T10E4 000:184.916   Data:  01 00 00 00 00 00 00 00 00 00 00 00 00 00 00 00 ...
T10E4 000:184.935   CPU_WriteMem(28 bytes @ 0xE0001000)
T10E4 000:185.269 - 0.367ms returns 0x1C
T10E4 000:185.290 JLINK_HasError()
T10E4 000:185.300 JLINK_ReadReg(R15 (PC))
T10E4 000:185.311 - 0.015ms returns 0x08000220
T10E4 000:185.320 JLINK_ReadReg(XPSR)
T10E4 000:185.329 - 0.012ms returns 0x01000000
T10E4 000:187.657 JLINK_ReadMemEx(0xE0001004, 0x4 Bytes, Flags = 0x02000000)
T10E4 000:187.692   Data:  00 00 00 00
T10E4 000:187.705   Debug reg: DWT_CYCCNT
T10E4 000:187.718 - 0.070ms returns 4 (0x4)
T10E4 000:250.549 JLINK_HasError()
T10E4 000:250.604 JLINK_SetResetType(JLINKARM_CM3_RESET_TYPE_NORMAL)
T10E4 000:250.613 - 0.013ms returns JLINKARM_CM3_RESET_TYPE_NORMAL
T10E4 000:250.626 JLINK_Reset()
T10E4 000:250.647   CPU_WriteMem(4 bytes @ 0xE000EDF0)
T10E4 000:251.060   CPU_WriteMem(4 bytes @ 0xE000EDFC)
T10E4 000:251.320   Reset: Halt core after reset via DEMCR.VC_CORERESET.
T10E4 000:251.604   Reset: Reset device via AIRCR.SYSRESETREQ.
T10E4 000:251.628   CPU_WriteMem(4 bytes @ 0xE000ED0C)
T10E4 000:305.410   CPU_ReadMem(4 bytes @ 0xE000EDF0)
T10E4 000:305.857   CPU_ReadMem(4 bytes @ 0xE000EDF0)
T10E4 000:306.137   CPU_WriteMem(4 bytes @ 0xE000EDFC)
T10E4 000:312.280   CPU_ReadMem(4 bytes @ 0xE000EDF0)
T10E4 000:314.944   CPU_WriteMem(4 bytes @ 0xE0002000)
T10E4 000:315.407   CPU_ReadMem(4 bytes @ 0xE000EDFC)
T10E4 000:315.701   CPU_ReadMem(4 bytes @ 0xE0001000)
T10E4 000:316.152 - 65.540ms
T10E4 000:316.267 JLINK_HasError()
T10E4 000:316.279 JLINK_ReadReg(R15 (PC))
T10E4 000:316.293 - 0.017ms returns 0x08000220
T10E4 000:316.303 JLINK_ReadReg(XPSR)
T10E4 000:316.312 - 0.013ms returns 0x01000000
T10E4 000:317.267 JLINK_ReadMemEx(0x08000220, 0x3C Bytes, Flags = 0x02000000)
T10E4 000:317.362   CPU_ReadMem(128 bytes @ 0x08000200)
T10E4 000:318.261    -- Updating C cache (128 bytes @ 0x08000200)
T10E4 000:318.331    -- Read from C cache (60 bytes @ 0x08000220)
T10E4 000:318.347   Data:  06 48 80 47 06 48 00 47 FE E7 FE E7 FE E7 FE E7 ...
T10E4 000:318.359 - 1.096ms returns 60 (0x3C)
T10E4 000:318.377 JLINK_ReadMemEx(0x08000220, 0x2 Bytes, Flags = 0x02000000)
T10E4 000:318.388    -- Read from C cache (2 bytes @ 0x08000220)
T10E4 000:318.401   Data:  06 48
T10E4 000:318.414 - 0.041ms returns 2 (0x2)
T10E4 000:318.490 JLINK_ReadMemEx(0x08000222, 0x2 Bytes, Flags = 0x02000000)
T10E4 000:318.499    -- Read from C cache (2 bytes @ 0x08000222)
T10E4 000:318.511   Data:  80 47
T10E4 000:318.524 - 0.037ms returns 2 (0x2)
T10E4 000:318.553 JLINK_ReadMemEx(0x08000222, 0x2 Bytes, Flags = 0x02000000)
T10E4 000:318.562    -- Read from C cache (2 bytes @ 0x08000222)
T10E4 000:318.574   Data:  80 47
T10E4 000:318.586 - 0.037ms returns 2 (0x2)
T10E4 000:318.595 JLINK_ReadMemEx(0x08000224, 0x3C Bytes, Flags = 0x02000000)
T10E4 000:318.604    -- Read from C cache (60 bytes @ 0x08000224)
T10E4 000:318.617   Data:  06 48 00 47 FE E7 FE E7 FE E7 FE E7 FE E7 FE E7 ...
T10E4 000:318.629 - 0.038ms returns 60 (0x3C)
T10E4 000:318.638 JLINK_ReadMemEx(0x08000224, 0x2 Bytes, Flags = 0x02000000)
T10E4 000:318.647    -- Read from C cache (2 bytes @ 0x08000224)
T10E4 000:318.659   Data:  06 48
T10E4 000:318.671 - 0.037ms returns 2 (0x2)
T10E4 001:642.827 JLINK_HasError()
T10E4 001:642.863 JLINK_ReadReg(R0)
T10E4 001:643.260 - 0.423ms returns 0x00000000
T10E4 001:643.300 JLINK_ReadReg(R1)
T10E4 001:643.313 - 0.019ms returns 0x00000000
T10E4 001:643.329 JLINK_ReadReg(R2)
T10E4 001:643.340 - 0.015ms returns 0x00000000
T10E4 001:643.351 JLINK_ReadReg(R3)
T10E4 001:643.361 - 0.015ms returns 0x00000000
T10E4 001:643.372 JLINK_ReadReg(R4)
T10E4 001:643.383 - 0.016ms returns 0x00000000
T10E4 001:643.394 JLINK_ReadReg(R5)
T10E4 001:643.405 - 0.015ms returns 0x00000000
T10E4 001:643.416 JLINK_ReadReg(R6)
T10E4 001:643.426 - 0.015ms returns 0x00000000
T10E4 001:643.437 JLINK_ReadReg(R7)
T10E4 001:643.460 - 0.027ms returns 0x00000000
T10E4 001:643.471 JLINK_ReadReg(R8)
T10E4 001:643.487 - 0.020ms returns 0x00000000
T10E4 001:643.498 JLINK_ReadReg(R9)
T10E4 001:643.513 - 0.019ms returns 0x00000000
T10E4 001:643.523 JLINK_ReadReg(R10)
T10E4 001:643.533 - 0.028ms returns 0x00000000
T10E4 001:643.558 JLINK_ReadReg(R11)
T10E4 001:643.568 - 0.015ms returns 0x00000000
T10E4 001:643.580 JLINK_ReadReg(R12)
T10E4 001:643.590 - 0.015ms returns 0x00000000
T10E4 001:643.601 JLINK_ReadReg(R13 (SP))
T10E4 001:643.613 - 0.017ms returns 0x20000528
T10E4 001:643.625 JLINK_ReadReg(R14)
T10E4 001:643.636 - 0.016ms returns 0xFFFFFFFF
T10E4 001:643.647 JLINK_ReadReg(R15 (PC))
T10E4 001:643.658 - 0.016ms returns 0x08000220
T10E4 001:643.670 JLINK_ReadReg(XPSR)
T10E4 001:643.681 - 0.016ms returns 0x01000000
T10E4 001:643.692 JLINK_ReadReg(MSP)
T10E4 001:643.703 - 0.075ms returns 0x20000528
T10E4 001:643.778 JLINK_ReadReg(PSP)
T10E4 001:643.793 - 0.021ms returns 0x00000000
T10E4 001:643.804 JLINK_ReadReg(CFBP)
T10E4 001:643.815 - 0.015ms returns 0x00000000
T10E4 001:643.826 JLINK_ReadReg(FPSCR)
T10E4 001:646.689 - 2.890ms returns 0x00000000
T10E4 001:646.738 JLINK_ReadReg(FPS0)
T10E4 001:646.750 - 0.016ms returns 0x00000000
T10E4 001:646.759 JLINK_ReadReg(FPS1)
T10E4 001:646.768 - 0.012ms returns 0x00000000
T10E4 001:646.777 JLINK_ReadReg(FPS2)
T10E4 001:646.785 - 0.012ms returns 0x00000000
T10E4 001:646.794 JLINK_ReadReg(FPS3)
T10E4 001:646.803 - 0.012ms returns 0x00000000
T10E4 001:646.812 JLINK_ReadReg(FPS4)
T10E4 001:646.820 - 0.012ms returns 0x00000000
T10E4 001:646.829 JLINK_ReadReg(FPS5)
T10E4 001:646.837 - 0.012ms returns 0x00000000
T10E4 001:646.846 JLINK_ReadReg(FPS6)
T10E4 001:646.854 - 0.012ms returns 0x00000000
T10E4 001:646.863 JLINK_ReadReg(FPS7)
T10E4 001:646.871 - 0.012ms returns 0x00000000
T10E4 001:646.880 JLINK_ReadReg(FPS8)
T10E4 001:646.888 - 0.012ms returns 0x00000000
T10E4 001:646.897 JLINK_ReadReg(FPS9)
T10E4 001:646.906 - 0.012ms returns 0x00000000
T10E4 001:646.915 JLINK_ReadReg(FPS10)
T10E4 001:646.923 - 0.012ms returns 0x00000000
T10E4 001:646.932 JLINK_ReadReg(FPS11)
T10E4 001:646.940 - 0.012ms returns 0x00000000
T10E4 001:646.949 JLINK_ReadReg(FPS12)
T10E4 001:646.957 - 0.012ms returns 0x00000000
T10E4 001:646.966 JLINK_ReadReg(FPS13)
T10E4 001:646.974 - 0.012ms returns 0x00000000
T10E4 001:646.983 JLINK_ReadReg(FPS14)
T10E4 001:646.991 - 0.012ms returns 0x00000000
T10E4 001:647.000 JLINK_ReadReg(FPS15)
T10E4 001:647.008 - 0.012ms returns 0x00000000
T10E4 001:647.017 JLINK_ReadReg(FPS16)
T10E4 001:647.025 - 0.012ms returns 0x00000000
T10E4 001:647.034 JLINK_ReadReg(FPS17)
T10E4 001:647.042 - 0.012ms returns 0x00000000
T10E4 001:647.051 JLINK_ReadReg(FPS18)
T10E4 001:647.059 - 0.012ms returns 0x00000000
T10E4 001:647.068 JLINK_ReadReg(FPS19)
T10E4 001:647.077 - 0.012ms returns 0x00000000
T10E4 001:647.085 JLINK_ReadReg(FPS20)
T10E4 001:647.094 - 0.012ms returns 0x00000000
T10E4 001:647.102 JLINK_ReadReg(FPS21)
T10E4 001:647.111 - 0.012ms returns 0x00000000
T10E4 001:647.119 JLINK_ReadReg(FPS22)
T10E4 001:647.128 - 0.012ms returns 0x00000000
T10E4 001:647.137 JLINK_ReadReg(FPS23)
T10E4 001:647.145 - 0.012ms returns 0x00000000
T10E4 001:647.154 JLINK_ReadReg(FPS24)
T10E4 001:647.162 - 0.012ms returns 0x00000000
T10E4 001:647.171 JLINK_ReadReg(FPS25)
T10E4 001:647.179 - 0.012ms returns 0x00000000
T10E4 001:647.188 JLINK_ReadReg(FPS26)
T10E4 001:647.196 - 0.012ms returns 0x00000000
T10E4 001:647.205 JLINK_ReadReg(FPS27)
T10E4 001:647.213 - 0.012ms returns 0x00000000
T10E4 001:647.222 JLINK_ReadReg(FPS28)
T10E4 001:647.230 - 0.012ms returns 0x00000000
T10E4 001:647.239 JLINK_ReadReg(FPS29)
T10E4 001:647.247 - 0.012ms returns 0x00000000
T10E4 001:647.256 JLINK_ReadReg(FPS30)
T10E4 001:647.265 - 0.012ms returns 0x00000000
T10E4 001:647.273 JLINK_ReadReg(FPS31)
T10E4 001:647.282 - 0.012ms returns 0x00000000
TAB78 001:765.917 JLINK_ReadMemEx(0x08000220, 0x2 Bytes, Flags = 0x02000000)
TAB78 001:765.991    -- Read from C cache (2 bytes @ 0x08000220)
TAB78 001:766.005   Data:  06 48
TAB78 001:766.019 - 0.105ms returns 2 (0x2)
TAB78 001:766.030 JLINK_HasError()
TAB78 001:766.044 JLINK_SetBPEx(Addr = 0x08001FA0, Type = 0xFFFFFFF2)
TAB78 001:766.058 - 0.018ms returns 0x00000001
TAB78 001:766.068 JLINK_HasError()
TAB78 001:766.077 JLINK_SetBPEx(Addr = 0x08002090, Type = 0xFFFFFFF2)
TAB78 001:766.086 - 0.013ms returns 0x00000002
TAB78 001:766.095 JLINK_HasError()
TAB78 001:766.104 JLINK_SetBPEx(Addr = 0x08002088, Type = 0xFFFFFFF2)
TAB78 001:766.113 - 0.012ms returns 0x00000003
TAB78 001:766.122 JLINK_HasError()
TAB78 001:766.130 JLINK_SetBPEx(Addr = 0x08002074, Type = 0xFFFFFFF2)
TAB78 001:766.139 - 0.012ms returns 0x00000004
TAB78 001:766.148 JLINK_HasError()
TAB78 001:766.157 JLINK_SetBPEx(Addr = 0x08000AD0, Type = 0xFFFFFFF2)
TAB78 001:766.165 - 0.012ms returns 0x00000005
TAB78 001:766.177 JLINK_HasError()
TAB78 001:766.187 JLINK_SetBPEx(Addr = 0x08000AC2, Type = 0xFFFFFFF2)
TAB78 001:766.196 - 0.012ms returns 0x00000006
TAB78 001:766.205 JLINK_HasError()
TAB78 001:766.214 JLINK_SetBPEx(Addr = 0x08000AAE, Type = 0xFFFFFFF2)
TAB78 001:766.228    -- BP[0] @ 0x08001FA0 converted into FlashBP
TAB78 001:766.241 - 0.030ms returns 0x00000007
TAB78 001:766.249 JLINK_HasError()
TAB78 001:766.258 JLINK_SetBPEx(Addr = 0x08001FCC, Type = 0xFFFFFFF2)
TAB78 001:766.267    -- BP[1] @ 0x08002090 converted into FlashBP
TAB78 001:766.280 - 0.025ms returns 0x00000008
TAB78 001:766.289 JLINK_HasError()
TAB78 001:766.297 JLINK_SetBPEx(Addr = 0x08001FC2, Type = 0xFFFFFFF2)
TAB78 001:766.307    -- BP[2] @ 0x08002088 converted into FlashBP
TAB78 001:766.319 - 0.025ms returns 0x00000009
TAB78 001:766.328 JLINK_HasError()
TAB78 001:766.336 JLINK_SetBPEx(Addr = 0x080020BA, Type = 0xFFFFFFF2)
TAB78 001:766.346    -- BP[3] @ 0x08002074 converted into FlashBP
TAB78 001:766.358 - 0.025ms returns 0x0000000A
TAB78 001:766.367 JLINK_HasError()
TAB78 001:766.376 JLINK_HasError()
TAB78 001:766.385 JLINK_Go()
TAB78 001:766.396    -- Read from C cache (2 bytes @ 0x08000220)
TAB78 001:766.411   CPU_ReadMem(4 bytes @ 0xE000ED18)
TAB78 001:766.705   CPU_WriteMem(4 bytes @ 0xE000ED18)
TAB78 001:767.026   CPU_ReadMem(4 bytes @ 0xE000ED18)
TAB78 001:767.435   CPU_WriteMem(4 bytes @ 0xE000ED18)
TAB78 001:767.747    -- Read from C cache (4 bytes @ 0x0800023C)
TAB78 001:767.774   -- Simulated
TAB78 001:767.788    -- Read from C cache (2 bytes @ 0x08000222)
TAB78 001:767.802   -- Simulated
TAB78 001:767.818   CPU_ReadMem(64 bytes @ 0x08001600)
TAB78 001:768.349    -- Updating C cache (64 bytes @ 0x08001600)
TAB78 001:768.439    -- Read from C cache (2 bytes @ 0x08001624)
TAB78 001:768.454    -- Read from C cache (2 bytes @ 0x08001626)
TAB78 001:768.467   -- Simulated
TAB78 001:768.481    -- Read from C cache (2 bytes @ 0x08001628)
TAB78 001:768.500    -- Read from C cache (2 bytes @ 0x0800162A)
TAB78 001:768.519   -- Simulated
TAB78 001:768.536    -- Read from C cache (2 bytes @ 0x0800162C)
TAB78 001:768.554   -- Not simulated
TAB78 001:768.578   CPU_ReadMem(4 bytes @ 0xE000ED90)
TAB78 001:768.903   CPU_ReadMem(4 bytes @ 0xE000ED94)
TAB78 001:769.377    -- (Bank @ 0x08000000): Start of determining flash info
TAB78 001:779.020    -- End of determining flash info
TAB78 001:847.706    -- Start of preparing flash programming
TAB78 001:847.816    -- Preparing RAMCode
TAB78 001:847.832    -- Calculating RAM usage
TAB78 001:847.845    -- RAM usage = 6856 Bytes
TAB78 001:847.857    -- Preserving CPU registers
TAB78 001:847.897    -- Preparing memory
TAB78 001:847.910    -- Preparing target
TAB78 001:847.923    -- Preserving target RAM temporarily used for programming
TAB78 001:874.555    -- Downloading RAMCode
TAB78 001:890.443    -- Initializing RAMCode (InitType: 3 = Verify)
TAB78 001:890.501    -- Executing SEGGER_FL_Prepare(3)
TAB78 001:894.032    -- End of preparing flash programming
TAB78 001:894.083   CPU_ReadMem(2048 bytes @ 0x08001800)
TAB78 001:902.876    -- Updating flash cache (2048 bytes @ 0x08001800)
TAB78 001:902.981    -- Updating flash cache invalid range 0x08001800 - 0x08001FFF (2048 bytes)
TAB78 001:903.006    -- Programming range 0x08001800 - 0x08001FFF (  1 Sector, 2 KB)
TAB78 001:956.522   CPU_ReadMem(2048 bytes @ 0x08002000)
TAB78 001:965.194    -- Updating flash cache (2048 bytes @ 0x08002000)
TAB78 001:965.299    -- Updating flash cache invalid range 0x08002000 - 0x080027FF (2048 bytes)
TAB78 001:965.338    -- Programming range 0x08002000 - 0x080027FF (  1 Sector, 2 KB)
TAB78 002:021.800    -- Start of restoring
TAB78 002:021.852    -- Executing SEGGER_FL_Restore()
TAB78 002:025.006    -- Restoring target memory
TAB78 002:045.989    -- Restoring CPU registers
TAB78 002:046.064    -- End of restoring
TAB78 002:059.040   CPU_WriteMem(4 bytes @ 0xE0002000)
TAB78 002:059.443   CPU_WriteMem(4 bytes @ 0xE0002000)
TAB78 002:059.759   CPU_WriteMem(4 bytes @ 0xE0002000)
TAB78 002:060.071   CPU_WriteMem(4 bytes @ 0xE0002000)
TAB78 002:060.376   CPU_WriteMem(4 bytes @ 0xE0002000)
TAB78 002:060.672   CPU_WriteMem(4 bytes @ 0xE0002000)
TAB78 002:061.027   CPU_ReadMem(4 bytes @ 0xE0001000)
TAB78 002:061.324   CPU_WriteMem(4 bytes @ 0xE0002008)
TAB78 002:061.345   CPU_WriteMem(4 bytes @ 0xE000200C)
TAB78 002:061.359   CPU_WriteMem(4 bytes @ 0xE0002010)
TAB78 002:061.372   CPU_WriteMem(4 bytes @ 0xE0002014)
TAB78 002:061.385   CPU_WriteMem(4 bytes @ 0xE0002018)
TAB78 002:061.397   CPU_WriteMem(4 bytes @ 0xE000201C)
TAB78 002:064.317 - 297.969ms
TAB78 002:164.743 JLINK_HasError()
TAB78 002:164.821 JLINK_IsHalted()
TAB78 002:166.976 - 2.178ms returns TRUE
TAB78 002:167.015 JLINK_HasError()
TAB78 002:167.032 JLINK_Halt()
TAB78 002:167.046 - 0.020ms returns 0x00
TAB78 002:167.061 JLINK_IsHalted()
TAB78 002:167.074 - 0.021ms returns TRUE
TAB78 002:167.092 JLINK_IsHalted()
TAB78 002:167.105 - 0.020ms returns TRUE
TAB78 002:167.122 JLINK_IsHalted()
TAB78 002:167.136 - 0.021ms returns TRUE
TAB78 002:167.154 JLINK_HasError()
TAB78 002:167.243 JLINK_ReadReg(R15 (PC))
TAB78 002:167.288 - 0.051ms returns 0x08001FA0
TAB78 002:167.304 JLINK_ReadReg(XPSR)
TAB78 002:167.316 - 0.019ms returns 0x61000000
TAB78 002:167.336 JLINK_HasError()
TAB78 002:167.350 JLINK_ClrBPEx(BPHandle = 0x00000001)
TAB78 002:167.364 - 0.019ms returns 0x00
TAB78 002:167.376 JLINK_HasError()
TAB78 002:167.388 JLINK_ClrBPEx(BPHandle = 0x00000002)
TAB78 002:167.400 - 0.018ms returns 0x00
TAB78 002:167.412 JLINK_HasError()
TAB78 002:167.424 JLINK_ClrBPEx(BPHandle = 0x00000003)
TAB78 002:167.435 - 0.016ms returns 0x00
TAB78 002:167.447 JLINK_HasError()
TAB78 002:167.459 JLINK_ClrBPEx(BPHandle = 0x00000004)
TAB78 002:167.479 - 0.026ms returns 0x00
TAB78 002:167.491 JLINK_HasError()
TAB78 002:167.503 JLINK_ClrBPEx(BPHandle = 0x00000005)
TAB78 002:167.516 - 0.017ms returns 0x00
TAB78 002:167.528 JLINK_HasError()
TAB78 002:167.540 JLINK_ClrBPEx(BPHandle = 0x00000006)
TAB78 002:167.553 - 0.017ms returns 0x00
TAB78 002:167.564 JLINK_HasError()
TAB78 002:167.576 JLINK_ClrBPEx(BPHandle = 0x00000007)
TAB78 002:167.587 - 0.016ms returns 0x00
TAB78 002:167.600 JLINK_HasError()
TAB78 002:167.612 JLINK_ClrBPEx(BPHandle = 0x00000008)
TAB78 002:167.624 - 0.016ms returns 0x00
TAB78 002:167.636 JLINK_HasError()
TAB78 002:167.648 JLINK_ClrBPEx(BPHandle = 0x00000009)
TAB78 002:167.660 - 0.017ms returns 0x00
TAB78 002:167.672 JLINK_HasError()
TAB78 002:167.685 JLINK_ClrBPEx(BPHandle = 0x0000000A)
TAB78 002:167.697 - 0.018ms returns 0x00
TAB78 002:167.710 JLINK_HasError()
TAB78 002:167.721 JLINK_HasError()
TAB78 002:167.734 JLINK_ReadMemU32(0xE000ED30, 0x1 Items)
TAB78 002:167.763   CPU_ReadMem(4 bytes @ 0xE000ED30)
TAB78 002:168.073   Data:  02 00 00 00
TAB78 002:168.103 - 0.373ms returns 1 (0x1)
TAB78 002:168.115 JLINK_ReadMemU32(0xE0001028, 0x1 Items)
TAB78 002:168.131   CPU_ReadMem(4 bytes @ 0xE0001028)
TAB78 002:168.599   Data:  00 00 00 00
TAB78 002:168.633   Debug reg: DWT_FUNC[0]
TAB78 002:168.647 - 0.536ms returns 1 (0x1)
TAB78 002:168.659 JLINK_ReadMemU32(0xE0001038, 0x1 Items)
TAB78 002:168.681   CPU_ReadMem(4 bytes @ 0xE0001038)
TAB78 002:169.014   Data:  00 02 00 00
TAB78 002:169.033   Debug reg: DWT_FUNC[1]
TAB78 002:169.046 - 0.391ms returns 1 (0x1)
TAB78 002:169.057 JLINK_ReadMemU32(0xE0001048, 0x1 Items)
TAB78 002:169.070   CPU_ReadMem(4 bytes @ 0xE0001048)
TAB78 002:169.292   Data:  00 00 00 00
TAB78 002:169.308   Debug reg: DWT_FUNC[2]
TAB78 002:169.320 - 0.267ms returns 1 (0x1)
TAB78 002:169.330 JLINK_ReadMemU32(0xE0001058, 0x1 Items)
TAB78 002:169.339   CPU_ReadMem(4 bytes @ 0xE0001058)
TAB78 002:169.613   Data:  00 00 00 00
TAB78 002:169.755   Debug reg: DWT_FUNC[3]
TAB78 002:169.768 - 0.442ms returns 1 (0x1)
TAB78 002:169.909 JLINK_HasError()
TAB78 002:169.946 JLINK_ReadReg(R0)
TAB78 002:169.964 - 0.025ms returns 0x08001FA1
TAB78 002:169.977 JLINK_ReadReg(R1)
TAB78 002:169.989 - 0.016ms returns 0x20000528
TAB78 002:170.000 JLINK_ReadReg(R2)
TAB78 002:170.019 - 0.032ms returns 0x00000000
TAB78 002:170.040 JLINK_ReadReg(R3)
TAB78 002:170.052 - 0.017ms returns 0x08002605
TAB78 002:170.064 JLINK_ReadReg(R4)
TAB78 002:170.076 - 0.016ms returns 0x08002648
TAB78 002:170.086 JLINK_ReadReg(R5)
TAB78 002:170.096 - 0.016ms returns 0x08002648
TAB78 002:170.107 JLINK_ReadReg(R6)
TAB78 002:170.116 - 0.014ms returns 0x00000000
TAB78 002:170.126 JLINK_ReadReg(R7)
TAB78 002:170.137 - 0.015ms returns 0x00000000
TAB78 002:170.147 JLINK_ReadReg(R8)
TAB78 002:170.158 - 0.014ms returns 0x00000000
TAB78 002:170.168 JLINK_ReadReg(R9)
TAB78 002:170.178 - 0.013ms returns 0x00000000
TAB78 002:170.187 JLINK_ReadReg(R10)
TAB78 002:170.198 - 0.017ms returns 0x00000000
TAB78 002:170.211 JLINK_ReadReg(R11)
TAB78 002:170.226 - 0.021ms returns 0x00000000
TAB78 002:170.238 JLINK_ReadReg(R12)
TAB78 002:170.252 - 0.019ms returns 0x00000000
TAB78 002:170.263 JLINK_ReadReg(R13 (SP))
TAB78 002:170.274 - 0.015ms returns 0x20000528
TAB78 002:170.285 JLINK_ReadReg(R14)
TAB78 002:170.295 - 0.015ms returns 0x080005E9
TAB78 002:170.306 JLINK_ReadReg(R15 (PC))
TAB78 002:170.316 - 0.014ms returns 0x08001FA0
TAB78 002:170.326 JLINK_ReadReg(XPSR)
TAB78 002:170.335 - 0.013ms returns 0x61000000
TAB78 002:170.345 JLINK_ReadReg(MSP)
TAB78 002:170.354 - 0.013ms returns 0x20000528
TAB78 002:170.364 JLINK_ReadReg(PSP)
TAB78 002:170.374 - 0.015ms returns 0x00000000
TAB78 002:170.385 JLINK_ReadReg(CFBP)
TAB78 002:170.395 - 0.015ms returns 0x00000000
TAB78 002:170.407 JLINK_ReadReg(FPSCR)
TAB78 002:173.370 - 2.985ms returns 0x00000000
TAB78 002:173.401 JLINK_ReadReg(FPS0)
TAB78 002:173.413 - 0.016ms returns 0x00000000
TAB78 002:173.423 JLINK_ReadReg(FPS1)
TAB78 002:173.431 - 0.012ms returns 0x00000000
TAB78 002:173.440 JLINK_ReadReg(FPS2)
TAB78 002:173.449 - 0.012ms returns 0x00000000
TAB78 002:173.458 JLINK_ReadReg(FPS3)
TAB78 002:173.466 - 0.012ms returns 0x00000000
TAB78 002:173.475 JLINK_ReadReg(FPS4)
TAB78 002:173.483 - 0.012ms returns 0x00000000
TAB78 002:173.492 JLINK_ReadReg(FPS5)
TAB78 002:173.501 - 0.012ms returns 0x00000000
TAB78 002:173.509 JLINK_ReadReg(FPS6)
TAB78 002:173.518 - 0.012ms returns 0x00000000
TAB78 002:173.527 JLINK_ReadReg(FPS7)
TAB78 002:173.535 - 0.012ms returns 0x00000000
TAB78 002:173.544 JLINK_ReadReg(FPS8)
TAB78 002:173.552 - 0.012ms returns 0x00000000
TAB78 002:173.561 JLINK_ReadReg(FPS9)
TAB78 002:173.569 - 0.012ms returns 0x00000000
TAB78 002:173.578 JLINK_ReadReg(FPS10)
TAB78 002:173.587 - 0.012ms returns 0x00000000
TAB78 002:173.596 JLINK_ReadReg(FPS11)
TAB78 002:173.604 - 0.012ms returns 0x00000000
TAB78 002:173.613 JLINK_ReadReg(FPS12)
TAB78 002:173.621 - 0.012ms returns 0x00000000
TAB78 002:173.630 JLINK_ReadReg(FPS13)
TAB78 002:173.638 - 0.012ms returns 0x00000000
TAB78 002:173.647 JLINK_ReadReg(FPS14)
TAB78 002:173.656 - 0.012ms returns 0x00000000
TAB78 002:173.665 JLINK_ReadReg(FPS15)
TAB78 002:173.673 - 0.012ms returns 0x00000000
TAB78 002:173.682 JLINK_ReadReg(FPS16)
TAB78 002:173.690 - 0.012ms returns 0x00000000
TAB78 002:173.699 JLINK_ReadReg(FPS17)
TAB78 002:173.708 - 0.012ms returns 0x00000000
TAB78 002:173.716 JLINK_ReadReg(FPS18)
TAB78 002:173.725 - 0.012ms returns 0x00000000
TAB78 002:173.734 JLINK_ReadReg(FPS19)
TAB78 002:173.742 - 0.012ms returns 0x00000000
TAB78 002:173.751 JLINK_ReadReg(FPS20)
TAB78 002:173.759 - 0.012ms returns 0x00000000
TAB78 002:173.768 JLINK_ReadReg(FPS21)
TAB78 002:173.776 - 0.012ms returns 0x00000000
TAB78 002:173.785 JLINK_ReadReg(FPS22)
TAB78 002:173.794 - 0.012ms returns 0x00000000
TAB78 002:173.803 JLINK_ReadReg(FPS23)
TAB78 002:173.811 - 0.012ms returns 0x00000000
TAB78 002:173.820 JLINK_ReadReg(FPS24)
TAB78 002:173.828 - 0.012ms returns 0x00000000
TAB78 002:173.837 JLINK_ReadReg(FPS25)
TAB78 002:173.851 - 0.018ms returns 0x00000000
TAB78 002:173.860 JLINK_ReadReg(FPS26)
TAB78 002:173.868 - 0.012ms returns 0x00000000
TAB78 002:173.877 JLINK_ReadReg(FPS27)
TAB78 002:173.885 - 0.012ms returns 0x00000000
TAB78 002:173.894 JLINK_ReadReg(FPS28)
TAB78 002:173.948 - 0.062ms returns 0x00000000
TAB78 002:173.961 JLINK_ReadReg(FPS29)
TAB78 002:173.969 - 0.012ms returns 0x00000000
TAB78 002:173.978 JLINK_ReadReg(FPS30)
TAB78 002:173.986 - 0.012ms returns 0x00000000
TAB78 002:173.995 JLINK_ReadReg(FPS31)
TAB78 002:174.004 - 0.012ms returns 0x00000000
T10E4 002:174.167 JLINK_ReadMemEx(0x20000582, 0x2 Bytes, Flags = 0x02000000)
T10E4 002:174.213   CPU_ReadMem(64 bytes @ 0x20000580)
T10E4 002:174.726    -- Updating C cache (64 bytes @ 0x20000580)
T10E4 002:174.747    -- Read from C cache (2 bytes @ 0x20000582)
T10E4 002:174.761   Data:  03 10
T10E4 002:174.774 - 0.612ms returns 2 (0x2)
T10E4 002:177.001 JLINK_ReadMemEx(0x20000582, 0x2 Bytes, Flags = 0x02000000)
T10E4 002:177.032    -- Read from C cache (2 bytes @ 0x20000582)
T10E4 002:177.046   Data:  03 10
T10E4 002:177.059 - 0.065ms returns 2 (0x2)
T10E4 002:177.093 JLINK_HasError()
T10E4 002:177.103 JLINK_ReadMemU32(0xE0001004, 0x1 Items)
T10E4 002:177.117   CPU_ReadMem(4 bytes @ 0xE0001004)
T10E4 002:177.383   Data:  D6 CE 3C 02
T10E4 002:177.397   Debug reg: DWT_CYCCNT
T10E4 002:177.409 - 0.310ms returns 1 (0x1)
T10E4 002:177.712 JLINK_ReadMemEx(0x20000582, 0x2 Bytes, Flags = 0x02000000)
T10E4 002:177.729    -- Read from C cache (2 bytes @ 0x20000582)
T10E4 002:177.741   Data:  03 10
T10E4 002:177.754 - 0.046ms returns 2 (0x2)
T10E4 002:177.784 JLINK_ReadMemEx(0x20000582, 0x2 Bytes, Flags = 0x02000000)
T10E4 002:177.794    -- Read from C cache (2 bytes @ 0x20000582)
T10E4 002:177.806   Data:  03 10
T10E4 002:177.818 - 0.037ms returns 2 (0x2)
T10E4 002:186.756 JLINK_ReadMemEx(0x08001FA0, 0x3C Bytes, Flags = 0x02000000)
T10E4 002:186.830    -- Read from flash cache (60 bytes @ 0x08001FA0)
T10E4 002:186.845    -- Merging zombie BP[0]: 0xB580 @ 0x08001FA0
T10E4 002:186.858   Data:  80 B5 98 B0 00 20 05 90 17 90 01 20 00 90 AD F8 ...
T10E4 002:186.871 - 0.118ms returns 60 (0x3C)
T10E4 002:186.881 JLINK_ReadMemEx(0x08001FA0, 0x2 Bytes, Flags = 0x02000000)
T10E4 002:186.890    -- Merging zombie BP[0]: 0xB580 @ 0x08001FA0
T10E4 002:186.902    -- Merging zombie BP[0]: 0xB580 @ 0x08001FA0
T10E4 002:186.914   Data:  80 B5
T10E4 002:186.927 - 0.049ms returns 2 (0x2)
T10E4 002:186.936 JLINK_ReadMemEx(0x08001FA2, 0x2 Bytes, Flags = 0x02000000)
T10E4 002:186.945    -- Read from flash cache (2 bytes @ 0x08001FA2)
T10E4 002:186.957   Data:  98 B0
T10E4 002:186.969 - 0.037ms returns 2 (0x2)
T10E4 002:186.984 JLINK_ReadMemEx(0x08001FA2, 0x2 Bytes, Flags = 0x02000000)
T10E4 002:186.993    -- Read from flash cache (2 bytes @ 0x08001FA2)
T10E4 002:187.005   Data:  98 B0
T10E4 002:187.017 - 0.036ms returns 2 (0x2)
T10E4 002:187.026 JLINK_ReadMemEx(0x08001FA4, 0x3C Bytes, Flags = 0x02000000)
T10E4 002:187.035    -- Read from flash cache (60 bytes @ 0x08001FA4)
T10E4 002:187.047   Data:  00 20 05 90 17 90 01 20 00 90 AD F8 5A 00 06 A8 ...
T10E4 002:187.059 - 0.036ms returns 60 (0x3C)
T10E4 002:187.068 JLINK_ReadMemEx(0x08001FA4, 0x2 Bytes, Flags = 0x02000000)
T10E4 002:187.076    -- Read from flash cache (2 bytes @ 0x08001FA4)
T10E4 002:187.094   Data:  00 20
T10E4 002:187.106 - 0.042ms returns 2 (0x2)
T10E4 002:187.117 JLINK_ReadMemEx(0x08001FA4, 0x3C Bytes, Flags = 0x02000000)
T10E4 002:187.132    -- Read from flash cache (60 bytes @ 0x08001FA4)
T10E4 002:187.144   Data:  00 20 05 90 17 90 01 20 00 90 AD F8 5A 00 06 A8 ...
T10E4 002:187.156 - 0.043ms returns 60 (0x3C)
T10E4 002:187.165 JLINK_ReadMemEx(0x08001FA4, 0x2 Bytes, Flags = 0x02000000)
T10E4 002:187.174    -- Read from flash cache (2 bytes @ 0x08001FA4)
T10E4 002:187.186   Data:  00 20
T10E4 002:187.198 - 0.036ms returns 2 (0x2)
T10E4 002:187.207 JLINK_ReadMemEx(0x08001FA6, 0x2 Bytes, Flags = 0x02000000)
T10E4 002:187.215    -- Read from flash cache (2 bytes @ 0x08001FA6)
T10E4 002:187.227   Data:  05 90
T10E4 002:187.239 - 0.036ms returns 2 (0x2)
T10E4 002:187.250 JLINK_ReadMemEx(0x08001FA6, 0x2 Bytes, Flags = 0x02000000)
T10E4 002:187.259    -- Read from flash cache (2 bytes @ 0x08001FA6)
T10E4 002:187.271   Data:  05 90
T10E4 002:187.291 - 0.044ms returns 2 (0x2)
T10E4 002:187.300 JLINK_ReadMemEx(0x08001FA8, 0x3C Bytes, Flags = 0x02000000)
T10E4 002:187.309    -- Read from flash cache (60 bytes @ 0x08001FA8)
T10E4 002:187.321   Data:  17 90 01 20 00 90 AD F8 5A 00 06 A8 04 90 40 21 ...
T10E4 002:187.333 - 0.037ms returns 60 (0x3C)
T10E4 002:187.342 JLINK_ReadMemEx(0x08001FA8, 0x2 Bytes, Flags = 0x02000000)
T10E4 002:187.350    -- Read from flash cache (2 bytes @ 0x08001FA8)
T10E4 002:187.362   Data:  17 90
T10E4 002:187.374 - 0.036ms returns 2 (0x2)
TAB78 007:815.049 JLINK_ReadMemEx(0x08001FA0, 0x2 Bytes, Flags = 0x02000000)
TAB78 007:815.171    -- Merging zombie BP[0]: 0xB580 @ 0x08001FA0
TAB78 007:815.221    -- Merging zombie BP[0]: 0xB580 @ 0x08001FA0
TAB78 007:815.280   Data:  80 B5
TAB78 007:815.328 - 0.295ms returns 2 (0x2)
TAB78 007:815.388 JLINK_HasError()
TAB78 007:815.480 JLINK_SetBPEx(Addr = 0x08002090, Type = 0xFFFFFFF2)
TAB78 007:815.511 - 0.043ms returns 0x0000000B
TAB78 007:815.536 JLINK_HasError()
TAB78 007:815.557 JLINK_SetBPEx(Addr = 0x08002088, Type = 0xFFFFFFF2)
TAB78 007:815.577 - 0.029ms returns 0x0000000C
TAB78 007:815.597 JLINK_HasError()
TAB78 007:815.617 JLINK_SetBPEx(Addr = 0x08002074, Type = 0xFFFFFFF2)
TAB78 007:815.636 - 0.028ms returns 0x0000000D
TAB78 007:815.657 JLINK_HasError()
TAB78 007:815.677 JLINK_SetBPEx(Addr = 0x08000AD0, Type = 0xFFFFFFF2)
TAB78 007:815.696 - 0.029ms returns 0x0000000E
TAB78 007:815.716 JLINK_HasError()
TAB78 007:815.736 JLINK_SetBPEx(Addr = 0x08000AC2, Type = 0xFFFFFFF2)
TAB78 007:815.755 - 0.028ms returns 0x0000000F
TAB78 007:815.775 JLINK_HasError()
TAB78 007:815.795 JLINK_SetBPEx(Addr = 0x08000AAE, Type = 0xFFFFFFF2)
TAB78 007:815.814 - 0.028ms returns 0x00000010
TAB78 007:815.834 JLINK_HasError()
TAB78 007:815.853 JLINK_SetBPEx(Addr = 0x08001FCC, Type = 0xFFFFFFF2)
TAB78 007:815.872 - 0.028ms returns 0x00000011
TAB78 007:815.892 JLINK_HasError()
TAB78 007:815.911 JLINK_SetBPEx(Addr = 0x08001FC2, Type = 0xFFFFFFF2)
TAB78 007:815.930 - 0.029ms returns 0x00000012
TAB78 007:815.950 JLINK_HasError()
TAB78 007:815.968 JLINK_SetBPEx(Addr = 0x080020BA, Type = 0xFFFFFFF2)
TAB78 007:815.985 - 0.025ms returns 0x00000013
TAB78 007:816.004 JLINK_HasError()
TAB78 007:816.022 JLINK_HasError()
TAB78 007:816.041 JLINK_Go()
TAB78 007:816.533    -- Merging zombie BP[0]: 0xB580 @ 0x08001FA0
TAB78 007:816.562    -- Merging zombie BP[0]: 0xB580 @ 0x08001FA0
TAB78 007:816.601   CPU_WriteMem(8 bytes @ 0x20000520)
TAB78 007:817.121   -- Simulated
TAB78 007:817.150    -- Read from flash cache (2 bytes @ 0x08001FA2)
TAB78 007:817.176   -- Simulated
TAB78 007:817.200    -- Read from flash cache (2 bytes @ 0x08001FA4)
TAB78 007:817.226   -- Simulated
TAB78 007:817.250    -- Read from flash cache (2 bytes @ 0x08001FA6)
TAB78 007:817.277   CPU_WriteMem(4 bytes @ 0x200004D4)
TAB78 007:817.658   -- Simulated
TAB78 007:817.686    -- Read from flash cache (2 bytes @ 0x08001FA8)
TAB78 007:817.711   CPU_WriteMem(4 bytes @ 0x2000051C)
TAB78 007:818.029   -- Simulated
TAB78 007:818.073    -- Read from flash cache (2 bytes @ 0x08001FAA)
TAB78 007:818.096   -- Simulated
TAB78 007:818.120    -- Read from flash cache (2 bytes @ 0x08001FAC)
TAB78 007:818.145   CPU_WriteMem(4 bytes @ 0x200004C0)
TAB78 007:818.470   -- Simulated
TAB78 007:818.520    -- Read from flash cache (2 bytes @ 0x08001FAE)
TAB78 007:818.542    -- Read from flash cache (2 bytes @ 0x08001FB0)
TAB78 007:818.563   -- Not simulated
TAB78 007:818.589   CPU_ReadMem(4 bytes @ 0xE000ED90)
TAB78 007:818.865   CPU_ReadMem(4 bytes @ 0xE000ED94)
TAB78 007:819.120    -- (Bank @ 0x08000000): Start of determining flash info
TAB78 007:821.388    -- End of determining flash info
TAB78 007:845.898    -- Start of preparing flash programming
TAB78 007:845.948    -- Preparing RAMCode
TAB78 007:845.962    -- Calculating RAM usage
TAB78 007:845.976    -- RAM usage = 6856 Bytes
TAB78 007:845.989    -- Preserving CPU registers
TAB78 007:846.017    -- Preparing memory
TAB78 007:846.030    -- Preparing target
TAB78 007:846.046    -- Preserving target RAM temporarily used for programming
TAB78 007:872.731    -- Downloading RAMCode
TAB78 007:888.420    -- Initializing RAMCode (InitType: 3 = Verify)
TAB78 007:888.493    -- Executing SEGGER_FL_Prepare(3)
TAB78 007:892.501    -- End of preparing flash programming
TAB78 007:892.549    -- Read from flash cache (2048 bytes @ 0x08001800)
TAB78 007:892.563    -- Programming range 0x08001800 - 0x08001FFF (  1 Sector, 2 KB)
TAB78 007:944.349    -- Start of restoring
TAB78 007:944.392    -- Executing SEGGER_FL_Restore()
TAB78 007:948.393    -- Restoring target memory
TAB78 007:969.499    -- Restoring CPU registers
TAB78 007:969.581    -- End of restoring
TAB78 007:982.306   CPU_WriteMem(4 bytes @ 0xE0002000)
TAB78 007:982.669   CPU_WriteMem(4 bytes @ 0xE0002000)
TAB78 007:983.039   CPU_WriteMem(4 bytes @ 0xE0002000)
TAB78 007:983.366   CPU_WriteMem(4 bytes @ 0xE0002000)
TAB78 007:983.645   CPU_WriteMem(4 bytes @ 0xE0002000)
TAB78 007:984.145   CPU_WriteMem(4 bytes @ 0xE0002000)
TAB78 007:984.524   CPU_ReadMem(4 bytes @ 0xE0001000)
TAB78 007:986.911 - 170.910ms
TAB78 008:087.196 JLINK_HasError()
TAB78 008:087.258 JLINK_IsHalted()
TAB78 008:089.245 - 1.993ms returns TRUE
TAB78 008:089.258 JLINK_HasError()
TAB78 008:089.266 JLINK_Halt()
TAB78 008:089.274 - 0.011ms returns 0x00
TAB78 008:089.284 JLINK_IsHalted()
TAB78 008:089.292 - 0.011ms returns TRUE
TAB78 008:089.300 JLINK_IsHalted()
TAB78 008:089.308 - 0.011ms returns TRUE
TAB78 008:089.316 JLINK_IsHalted()
TAB78 008:089.324 - 0.011ms returns TRUE
TAB78 008:089.333 JLINK_HasError()
TAB78 008:089.342 JLINK_ReadReg(R15 (PC))
TAB78 008:089.352 - 0.013ms returns 0x08001FC2
TAB78 008:089.361 JLINK_ReadReg(XPSR)
TAB78 008:089.369 - 0.012ms returns 0x21000000
TAB78 008:089.380 JLINK_HasError()
TAB78 008:089.388 JLINK_ClrBPEx(BPHandle = 0x0000000B)
TAB78 008:089.396 - 0.012ms returns 0x00
TAB78 008:089.405 JLINK_HasError()
TAB78 008:089.413 JLINK_ClrBPEx(BPHandle = 0x0000000C)
TAB78 008:089.421 - 0.011ms returns 0x00
TAB78 008:089.430 JLINK_HasError()
TAB78 008:089.438 JLINK_ClrBPEx(BPHandle = 0x0000000D)
TAB78 008:089.446 - 0.012ms returns 0x00
TAB78 008:089.454 JLINK_HasError()
TAB78 008:089.463 JLINK_ClrBPEx(BPHandle = 0x0000000E)
TAB78 008:089.471 - 0.012ms returns 0x00
TAB78 008:089.479 JLINK_HasError()
TAB78 008:089.488 JLINK_ClrBPEx(BPHandle = 0x0000000F)
TAB78 008:089.496 - 0.012ms returns 0x00
TAB78 008:089.504 JLINK_HasError()
TAB78 008:089.512 JLINK_ClrBPEx(BPHandle = 0x00000010)
TAB78 008:089.521 - 0.012ms returns 0x00
TAB78 008:089.529 JLINK_HasError()
TAB78 008:089.538 JLINK_ClrBPEx(BPHandle = 0x00000011)
TAB78 008:089.546 - 0.012ms returns 0x00
TAB78 008:089.554 JLINK_HasError()
TAB78 008:089.562 JLINK_ClrBPEx(BPHandle = 0x00000012)
TAB78 008:089.570 - 0.011ms returns 0x00
TAB78 008:089.579 JLINK_HasError()
TAB78 008:089.587 JLINK_ClrBPEx(BPHandle = 0x00000013)
TAB78 008:089.595 - 0.012ms returns 0x00
TAB78 008:089.604 JLINK_HasError()
TAB78 008:089.612 JLINK_HasError()
TAB78 008:089.620 JLINK_ReadMemU32(0xE000ED30, 0x1 Items)
TAB78 008:089.636   CPU_ReadMem(4 bytes @ 0xE000ED30)
TAB78 008:090.172   Data:  02 00 00 00
TAB78 008:090.208 - 0.591ms returns 1 (0x1)
TAB78 008:090.222 JLINK_ReadMemU32(0xE0001028, 0x1 Items)
TAB78 008:090.236   CPU_ReadMem(4 bytes @ 0xE0001028)
TAB78 008:091.047   Data:  00 00 00 00
TAB78 008:091.115   Debug reg: DWT_FUNC[0]
TAB78 008:091.126 - 0.907ms returns 1 (0x1)
TAB78 008:091.139 JLINK_ReadMemU32(0xE0001038, 0x1 Items)
TAB78 008:091.150   CPU_ReadMem(4 bytes @ 0xE0001038)
TAB78 008:091.625   Data:  00 02 00 00
TAB78 008:091.647   Debug reg: DWT_FUNC[1]
TAB78 008:091.657 - 0.521ms returns 1 (0x1)
TAB78 008:091.668 JLINK_ReadMemU32(0xE0001048, 0x1 Items)
TAB78 008:091.679   CPU_ReadMem(4 bytes @ 0xE0001048)
TAB78 008:092.288   Data:  00 00 00 00
TAB78 008:092.414   Debug reg: DWT_FUNC[2]
TAB78 008:092.463 - 0.799ms returns 1 (0x1)
TAB78 008:092.472 JLINK_ReadMemU32(0xE0001058, 0x1 Items)
TAB78 008:092.482   CPU_ReadMem(4 bytes @ 0xE0001058)
TAB78 008:093.070   Data:  00 00 00 00
TAB78 008:093.197   Debug reg: DWT_FUNC[3]
TAB78 008:093.243 - 0.774ms returns 1 (0x1)
TAB78 008:093.282 JLINK_HasError()
TAB78 008:093.290 JLINK_ReadReg(R0)
TAB78 008:093.297 - 0.010ms returns 0x0E4E1C00
TAB78 008:093.305 JLINK_ReadReg(R1)
TAB78 008:093.312 - 0.010ms returns 0x2000011C
TAB78 008:093.319 JLINK_ReadReg(R2)
TAB78 008:093.326 - 0.010ms returns 0x00000000
TAB78 008:093.333 JLINK_ReadReg(R3)
TAB78 008:093.340 - 0.010ms returns 0x00000000
TAB78 008:093.347 JLINK_ReadReg(R4)
TAB78 008:093.354 - 0.010ms returns 0x08002648
TAB78 008:093.424 JLINK_ReadReg(R5)
TAB78 008:093.434 - 0.014ms returns 0x08002648
TAB78 008:093.443 JLINK_ReadReg(R6)
TAB78 008:093.451 - 0.012ms returns 0x00000000
TAB78 008:093.460 JLINK_ReadReg(R7)
TAB78 008:093.469 - 0.013ms returns 0x00000000
TAB78 008:093.478 JLINK_ReadReg(R8)
TAB78 008:093.486 - 0.012ms returns 0x00000000
TAB78 008:093.495 JLINK_ReadReg(R9)
TAB78 008:093.503 - 0.011ms returns 0x00000000
TAB78 008:093.511 JLINK_ReadReg(R10)
TAB78 008:093.519 - 0.011ms returns 0x00000000
TAB78 008:093.527 JLINK_ReadReg(R11)
TAB78 008:093.535 - 0.011ms returns 0x00000000
TAB78 008:093.544 JLINK_ReadReg(R12)
TAB78 008:093.552 - 0.012ms returns 0x00000000
TAB78 008:093.560 JLINK_ReadReg(R13 (SP))
TAB78 008:093.567 - 0.010ms returns 0x200004C0
TAB78 008:093.574 JLINK_ReadReg(R14)
TAB78 008:093.581 - 0.010ms returns 0x08000267
TAB78 008:093.588 JLINK_ReadReg(R15 (PC))
TAB78 008:093.594 - 0.010ms returns 0x08001FC2
TAB78 008:093.602 JLINK_ReadReg(XPSR)
TAB78 008:093.609 - 0.010ms returns 0x21000000
TAB78 008:093.616 JLINK_ReadReg(MSP)
TAB78 008:093.622 - 0.010ms returns 0x200004C0
TAB78 008:093.630 JLINK_ReadReg(PSP)
TAB78 008:093.637 - 0.010ms returns 0x00000000
TAB78 008:093.644 JLINK_ReadReg(CFBP)
TAB78 008:093.650 - 0.010ms returns 0x00000000
TAB78 008:093.658 JLINK_ReadReg(FPSCR)
TAB78 008:097.255 - 3.603ms returns 0x00000000
TAB78 008:097.267 JLINK_ReadReg(FPS0)
TAB78 008:097.275 - 0.012ms returns 0x00000000
TAB78 008:097.284 JLINK_ReadReg(FPS1)
TAB78 008:097.291 - 0.011ms returns 0x00000000
TAB78 008:097.300 JLINK_ReadReg(FPS2)
TAB78 008:097.308 - 0.012ms returns 0x00000000
TAB78 008:097.318 JLINK_ReadReg(FPS3)
TAB78 008:097.325 - 0.010ms returns 0x00000000
TAB78 008:097.332 JLINK_ReadReg(FPS4)
TAB78 008:097.339 - 0.010ms returns 0x00000000
TAB78 008:097.346 JLINK_ReadReg(FPS5)
TAB78 008:097.352 - 0.010ms returns 0x00000000
TAB78 008:097.360 JLINK_ReadReg(FPS6)
TAB78 008:097.366 - 0.009ms returns 0x00000000
TAB78 008:097.373 JLINK_ReadReg(FPS7)
TAB78 008:097.380 - 0.010ms returns 0x00000000
TAB78 008:097.387 JLINK_ReadReg(FPS8)
TAB78 008:097.394 - 0.010ms returns 0x00000000
TAB78 008:097.401 JLINK_ReadReg(FPS9)
TAB78 008:097.408 - 0.010ms returns 0x00000000
TAB78 008:097.415 JLINK_ReadReg(FPS10)
TAB78 008:097.422 - 0.009ms returns 0x00000000
TAB78 008:097.429 JLINK_ReadReg(FPS11)
TAB78 008:097.435 - 0.009ms returns 0x00000000
TAB78 008:097.443 JLINK_ReadReg(FPS12)
TAB78 008:097.449 - 0.010ms returns 0x00000000
TAB78 008:097.456 JLINK_ReadReg(FPS13)
TAB78 008:097.463 - 0.010ms returns 0x00000000
TAB78 008:097.470 JLINK_ReadReg(FPS14)
TAB78 008:097.477 - 0.009ms returns 0x00000000
TAB78 008:097.484 JLINK_ReadReg(FPS15)
TAB78 008:097.491 - 0.010ms returns 0x00000000
TAB78 008:097.498 JLINK_ReadReg(FPS16)
TAB78 008:097.504 - 0.010ms returns 0x00000000
TAB78 008:097.514 JLINK_ReadReg(FPS17)
TAB78 008:097.521 - 0.010ms returns 0x00000000
TAB78 008:097.528 JLINK_ReadReg(FPS18)
TAB78 008:097.535 - 0.010ms returns 0x00000000
TAB78 008:097.542 JLINK_ReadReg(FPS19)
TAB78 008:097.549 - 0.009ms returns 0x00000000
TAB78 008:097.556 JLINK_ReadReg(FPS20)
TAB78 008:097.563 - 0.010ms returns 0x00000000
TAB78 008:097.570 JLINK_ReadReg(FPS21)
TAB78 008:097.576 - 0.010ms returns 0x00000000
TAB78 008:097.584 JLINK_ReadReg(FPS22)
TAB78 008:097.590 - 0.009ms returns 0x00000000
TAB78 008:097.597 JLINK_ReadReg(FPS23)
TAB78 008:097.604 - 0.011ms returns 0x00000000
TAB78 008:097.613 JLINK_ReadReg(FPS24)
TAB78 008:097.619 - 0.009ms returns 0x00000000
TAB78 008:097.627 JLINK_ReadReg(FPS25)
TAB78 008:097.633 - 0.009ms returns 0x00000000
TAB78 008:097.640 JLINK_ReadReg(FPS26)
TAB78 008:097.647 - 0.009ms returns 0x00000000
TAB78 008:097.654 JLINK_ReadReg(FPS27)
TAB78 008:097.661 - 0.009ms returns 0x00000000
TAB78 008:097.668 JLINK_ReadReg(FPS28)
TAB78 008:097.675 - 0.009ms returns 0x00000000
TAB78 008:097.682 JLINK_ReadReg(FPS29)
TAB78 008:097.688 - 0.009ms returns 0x00000000
TAB78 008:097.695 JLINK_ReadReg(FPS30)
TAB78 008:097.702 - 0.010ms returns 0x00000000
TAB78 008:097.709 JLINK_ReadReg(FPS31)
TAB78 008:097.716 - 0.010ms returns 0x00000000
T10E4 008:097.937 JLINK_ReadMemEx(0x20000524, 0x4 Bytes, Flags = 0x02000000)
T10E4 008:097.972   CPU_ReadMem(64 bytes @ 0x20000500)
T10E4 008:098.570    -- Updating C cache (64 bytes @ 0x20000500)
T10E4 008:098.596    -- Read from C cache (4 bytes @ 0x20000524)
T10E4 008:098.608   Data:  E9 05 00 08
T10E4 008:098.620 - 0.687ms returns 4 (0x4)
T10E4 008:098.640 JLINK_ReadMemEx(0x2000051A, 0x2 Bytes, Flags = 0x02000000)
T10E4 008:098.651    -- Read from C cache (2 bytes @ 0x2000051A)
T10E4 008:098.663   Data:  01 00
T10E4 008:098.674 - 0.038ms returns 2 (0x2)
T10E4 008:098.728 JLINK_HasError()
T10E4 008:098.738 JLINK_ReadMemU32(0xE0001004, 0x1 Items)
T10E4 008:098.749   CPU_ReadMem(4 bytes @ 0xE0001004)
T10E4 008:099.272   Data:  3A 59 2B 03
T10E4 008:099.299   Debug reg: DWT_CYCCNT
T10E4 008:099.312 - 0.578ms returns 1 (0x1)
T10E4 008:099.425 JLINK_ReadMemEx(0x2000051A, 0x2 Bytes, Flags = 0x02000000)
T10E4 008:099.437    -- Read from C cache (2 bytes @ 0x2000051A)
T10E4 008:099.449   Data:  01 00
T10E4 008:099.461 - 0.040ms returns 2 (0x2)
